Frequency (Hz),Z' (Ohms),"Z"" (Ohms)"
300000,9.33303,1.41446
238298,9.36323,1.19451
189287,9.40128,1.03695
150356,9.4377,0.896446
119432,9.47957,0.754237
94868.2,9.51905,0.625757
75356.6,9.54431,0.499329
59857.8,9.57651,0.383567
47546.7,9.60118,0.284844
37767.7,9.6217,0.19768
29999.9,9.62792,0.134619
23829.8,9.63786,0.0545508
18928.7,9.66037,-0.0186474
15035.6,9.68006,-0.0878712
11943.2,9.70391,-0.150924
9486.82,9.7421,-0.21497
7535.66,9.77582,-0.277891
5985.77,9.80414,-0.344856
4754.66,9.83674,-0.414879
3776.77,9.8781,-0.487936
3000,9.93588,-0.557061
2382.98,9.97666,-0.644448
1892.87,10.0407,-0.728346
1503.56,10.1362,-0.823843
1194.32,10.2218,-0.923224
948.68,10.3412,-1.03489
753.565,10.4816,-1.1565
598.578,10.6442,-1.28639
475.466,10.8238,-1.41735
377.677,11.0307,-1.55896
299.999,11.2574,-1.69843
238.298,11.5057,-1.83475
189.287,11.7995,-1.9839
150.355,12.1032,-2.12384
119.432,12.4293,-2.25608
94.8683,12.7733,-2.38311
75.3564,13.1146,-2.4897
59.8578,13.4946,-2.59893
47.5467,13.8771,-2.69037
37.7677,14.2553,-2.76662
29.9999,14.6628,-2.83481
23.8298,15.0929,-2.89445
18.9287,15.5335,-2.94115
15.0356,16.0084,-2.97918
11.9432,16.4563,-2.97685
9.4868,16.9123,-2.9927
7.53562,17.3138,-2.98462
5.98575,17.7164,-3.00495
4.75468,18.0826,-3.04563
3.77677,18.4403,-3.12756
2.99999,18.84,-3.25029
2.38298,19.2229,-3.37111
1.89286,19.7357,-3.52432
1.50355,19.8337,-3.43093
1.19432,20.126,-3.34875
0.948683,20.5483,-3.21713
0.753562,20.57,-2.8825
0.598578,20.9092,-2.62291
0.475467,20.8815,-2.2339
0.377676,20.7537,-1.86054
0.3,19.4904,-1.3344
0.238296,18.2733,-0.920617
0.189286,17.7595,-0.725219
0.150354,15.8385,-0.457948
0.119431,14.4728,-0.281232
0.0999989,10.865,-0.129431
