Frequency (Hz),Z' (Ohms),"Z"" (Ohms)"
300000,11.3902,1.53077
238298,11.4508,1.37093
189287,11.4837,1.21075
150356,11.5346,1.03165
119432,11.5702,0.86956
94868.2,11.6094,0.715774
75356.6,11.6384,0.561786
59857.8,11.6762,0.422467
47546.7,11.7095,0.283161
37767.7,11.7379,0.172295
29999.9,11.7436,0.0863064
23829.8,11.7799,-0.0235303
18928.7,11.8116,-0.124957
15035.6,11.856,-0.22272
11943.2,11.9086,-0.317681
9486.82,11.968,-0.420899
7535.66,12.0241,-0.518
5985.77,12.0923,-0.629042
4754.66,12.1629,-0.750746
3776.77,12.2518,-0.880487
3000,12.3527,-1.02633
2382.98,12.4584,-1.17456
1892.87,12.6158,-1.35318
1503.56,12.7725,-1.5568
1194.32,12.963,-1.75876
948.68,13.1925,-2.00442
753.565,13.4506,-2.2686
598.578,13.7465,-2.55769
475.466,14.0913,-2.87033
377.677,14.4765,-3.21413
299.999,14.9198,-3.58263
238.298,15.4144,-3.97247
189.287,15.9753,-4.39567
150.355,16.5894,-4.84236
119.432,17.2602,-5.30711
94.8683,18.0088,-5.81153
75.3564,18.8399,-6.34333
59.8578,19.7362,-6.90573
47.5467,20.7202,-7.49692
37.7677,21.7859,-8.11899
29.9999,22.9399,-8.76864
23.8298,24.2031,-9.47173
18.9287,25.5822,-10.2037
15.0356,27.0216,-10.9458
11.9432,28.534,-11.68
9.4868,30.0842,-12.4076
7.53562,31.6053,-13.2139
5.98575,33.1885,-14.1398
4.75468,34.7298,-15.2897
3.77677,36.2504,-16.8141
2.99999,37.7642,-18.6837
2.38298,39.619,-21.1208
1.89286,41.7705,-24.0638
1.50355,43.9298,-26.2997
1.19432,47.4118,-29.962
0.948683,51.7665,-33.3976
0.753562,57.3539,-36.5471
0.598578,64.0602,-38.9606
0.475467,72.0254,-40.2408
0.377676,80.1371,-40.2939
0.3,87.0503,-37.4327
0.238296,93.5582,-34.5628
0.189286,99.0216,-30.7451
0.150354,102.244,-25.9919
0.119431,105.087,-21.9818
0.0999989,105.845,-18.7451
